Freq.	V(mc)	V(mm)
2.00000000000000e+001	(-8.67962163583556e+001dB,2.00184074605205e+001°)	(-6.34744040526955e+001dB,2.00184074605205e+001°)
2.04658598456151e+001	(-8.67684349492740e+001dB,2.04357817408379e+001°)	(-6.34466226436139e+001dB,2.04357817408379e+001°)
2.09425709610180e+001	(-8.67395376955365e+001dB,2.08597971484817e+001°)	(-6.34177253898764e+001dB,2.08597971484817e+001°)
2.14303861047521e+001	(-8.67094878357594e+001dB,2.12904322456136e+001°)	(-6.33876755300993e+001dB,2.12904322456136e+001°)
2.19295639228637e+001	(-8.66782480490744e+001dB,2.17276568807450e+001°)	(-6.33564357434144e+001dB,2.17276568807450e+001°)
2.24403690860393e+001	(-8.66457805007287e+001dB,2.21714317889627e+001°)	(-6.33239681950687e+001dB,2.21714317889627e+001°)
2.29630724299377e+001	(-8.66120468924702e+001dB,2.26217081973856e+001°)	(-6.32902345868101e+001dB,2.26217081973856e+001°)
2.34979510987906e+001	(-8.65770085178265e+001dB,2.30784274382579e+001°)	(-6.32551962121664e+001dB,2.30784274382579e+001°)
2.40452886923483e+001	(-8.65406263223590e+001dB,2.35415205722400e+001°)	(-6.32188140166990e+001dB,2.35415205722400e+001°)
2.46053754162476e+001	(-8.65028609689450e+001dB,2.40109080246007e+001°)	(-6.31810486632849e+001dB,2.40109080246007e+001°)
2.51785082358833e+001	(-8.64636729081056e+001dB,2.44864992371484e+001°)	(-6.31418606024455e+001dB,2.44864992371484e+001°)
2.57649910338627e+001	(-8.64230224533647e+001dB,2.49681923388513e+001°)	(-6.31012101477047e+001dB,2.49681923388513e+001°)
2.63651347711281e+001	(-8.63808698615807e+001dB,2.54558738381953e+001°)	(-6.30590575559207e+001dB,2.54558738381953e+001°)
2.69792576518331e+001	(-8.63371754181512e+001dB,2.59494183404018e+001°)	(-6.30153631124912e+001dB,2.59494183404018e+001°)
2.76076852920577e+001	(-8.62918995269472e+001dB,2.64486882926725e+001°)	(-6.29700872212871e+001dB,2.64486882926725e+001°)
2.82507508924551e+001	(-8.62450028047824e+001dB,2.69535337606510e+001°)	(-6.29231904991223e+001dB,2.69535337606510e+001°)
2.89087954149185e+001	(-8.61964461801760e+001dB,2.74637922392738e+001°)	(-6.28746338745160e+001dB,2.74637922392738e+001°)
2.95821677633641e+001	(-8.61461909961134e+001dB,2.79792885011354e+001°)	(-6.28243786904533e+001dB,2.79792885011354e+001°)
3.02712249687242e+001	(-8.60941991164572e+001dB,2.84998344854065e+001°)	(-6.27723868107972e+001dB,2.84998344854065e+001°)
3.09763323782496e+001	(-8.60404330356108e+001dB,2.90252292302151e+001°)	(-6.27186207299507e+001dB,2.90252292302151e+001°)
3.16978638492223e+001	(-8.59848559909785e+001dB,2.95552588512339e+001°)	(-6.26630436853184e+001dB,2.95552588512339e+001°)
3.24362019471786e+001	(-8.59274320777219e+001dB,3.00896965690050e+001°)	(-6.26056197720618e+001dB,3.00896965690050e+001°)
3.31917381487512e+001	(-8.58681263652563e+001dB,3.06283027872777e+001°)	(-6.25463140595962e+001dB,3.06283027872777e+001°)
3.39648730492349e+001	(-8.58069050148892e+001dB,3.11708252243387e+001°)	(-6.24850927092291e+001dB,3.11708252243387e+001°)
3.47560165749875e+001	(-8.57437353979581e+001dB,3.17169990989730e+001°)	(-6.24219230922980e+001dB,3.17169990989730e+001°)
3.55655882007784e+001	(-8.56785862137874e+001dB,3.22665473723155e+001°)	(-6.23567739081273e+001dB,3.22665473723155e+001°)
3.63940171721997e+001	(-8.56114276067520e+001dB,3.28191810464350e+001°)	(-6.22896153010919e+001dB,3.28191810464350e+001°)
3.72417427332573e+001	(-8.55422312817094e+001dB,3.33745995200445e+001°)	(-6.22204189760493e+001dB,3.33745995200445e+001°)
3.81092143592649e+001	(-8.54709706170431e+001dB,3.39324910012501e+001°)	(-6.21491583113831e+001dB,3.39324910012501e+001°)
3.89968919951609e+001	(-8.53976207745500e+001dB,3.44925329767533e+001°)	(-6.20758084688900e+001dB,3.44925329767533e+001°)
3.99052462993776e+001	(-8.53221588054020e+001dB,3.50543927363975e+001°)	(-6.20003464997420e+001dB,3.50543927363975e+001°)
4.08347588933906e+001	(-8.52445637514192e+001dB,3.56177279514280e+001°)	(-6.19227514457591e+001dB,3.56177279514280e+001°)
4.17859226170808e+001	(-8.51648167409087e+001dB,3.61821873042971e+001°)	(-6.18430044352486e+001dB,3.61821873042971e+001°)
4.27592417900446e+001	(-8.50829010783482e+001dB,3.67474111673294e+001°)	(-6.17610887726882e+001dB,3.67474111673294e+001°)
4.37552324789910e+001	(-8.49988023272309e+001dB,3.73130323270452e+001°)	(-6.16769900215708e+001dB,3.73130323270452e+001°)
4.47744227713668e+001	(-8.49125083854291e+001dB,3.78786767504583e+001°)	(-6.15906960797690e+001dB,3.78786767504583e+001°)
4.58173530553554e+001	(-8.48240095524947e+001dB,3.84439643892046e+001°)	(-6.15021972468346e+001dB,3.84439643892046e+001°)
4.68845763063984e+001	(-8.47332985883691e+001dB,3.90085100169435e+001°)	(-6.14114862827090e+001dB,3.90085100169435e+001°)
4.79766583803898e+001	(-8.46403707630513e+001dB,3.95719240951013e+001°)	(-6.13185584573912e+001dB,3.95719240951013e+001°)
4.90941783137006e+001	(-8.45452238968475e+001dB,4.01338136617115e+001°)	(-6.12234115911874e+001dB,4.01338136617115e+001°)
5.02377286301916e+001	(-8.44478583909072e+001dB,4.06937832378484e+001°)	(-6.11260460852471e+001dB,4.06937832378484e+001°)
5.14079156553772e+001	(-8.43482772478404e+001dB,4.12514357459564e+001°)	(-6.10264649421803e+001dB,4.12514357459564e+001°)
5.26053598379076e+001	(-8.42464860822979e+001dB,4.18063734342562e+001°)	(-6.09246737766379e+001dB,4.18063734342562e+001°)
5.38306960785383e+001	(-8.41424931214931e+001dB,4.23581988013515e+001°)	(-6.08206808158331e+001dB,4.23581988013515e+001°)
5.50845740667633e+001	(-8.40363091957308e+001dB,4.29065155151802e+001°)	(-6.07144968900707e+001dB,4.29065155151802e+001°)
5.63676586252890e+001	(-8.39279477191060e+001dB,4.34509293205442e+001°)	(-6.06061354134459e+001dB,4.34509293205442e+001°)
5.76806300625321e+001	(-8.38174246606215e+001dB,4.39910489296093e+001°)	(-6.04956123549614e+001dB,4.39910489296093e+001°)
5.90241845333277e+001	(-8.37047585060586e+001dB,4.45264868899970e+001°)	(-6.03829462003986e+001dB,4.45264868899970e+001°)
6.03990344080403e+001	(-8.35899702110185e+001dB,4.50568604253778e+001°)	(-6.02681579053584e+001dB,4.50568604253778e+001°)
6.18059086502718e+001	(-8.34730831456223e+001dB,4.55817922438237e+001°)	(-6.01512708399622e+001dB,4.55817922438237e+001°)
6.32455532033675e+001	(-8.33541230314286e+001dB,4.61009113095790e+001°)	(-6.00323107257685e+001dB,4.61009113095790e+001°)
6.47187313859256e+001	(-8.32331178711845e+001dB,4.66138535743482e+001°)	(-5.99113055655244e+001dB,4.66138535743482e+001°)
6.62262242965182e+001	(-8.31100978720752e+001dB,4.71202626646855e+001°)	(-5.97882855664151e+001dB,4.71202626646855e+001°)
6.77688312278404e+001	(-8.29850953631816e+001dB,4.76197905225725e+001°)	(-5.96632830575215e+001dB,4.76197905225725e+001°)
6.93473700905062e+001	(-8.28581447078835e+001dB,4.81120979968078e+001°)	(-5.95363324022234e+001dB,4.81120979968078e+001°)
7.09626778467150e+001	(-8.27292822119692e+001dB,4.85968553833633e+001°)	(-5.94074699063091e+001dB,4.85968553833633e+001°)
7.26156109540202e+001	(-8.25985460282250e+001dB,4.90737429134154e+001°)	(-5.92767337225649e+001dB,4.90737429134154e+001°)
7.43070458194344e+001	(-8.24659760582781e+001dB,4.95424511882910e+001°)	(-5.91441637526181e+001dB,4.95424511882910e+001°)
7.60378792641121e+001	(-8.23316138524643e+001dB,5.00026815610998e+001°)	(-5.90098015468042e+001dB,5.00026815610998e+001°)
7.78090289988560e+001	(-8.21955025084707e+001dB,5.04541464653319e+001°)	(-5.88736902028106e+001dB,5.04541464653319e+001°)
7.96214341106993e+001	(-8.20576865694879e+001dB,5.08965696911815e+001°)	(-5.87358742638279e+001dB,5.08965696911815e+001°)
8.14760555608224e+001	(-8.19182119225700e+001dB,5.13296866108138e+001°)	(-5.85963996169099e+001dB,5.13296866108138e+001°)
8.33738766940670e+001	(-8.17771256978663e+001dB,5.17532443542066e+001°)	(-5.84553133922062e+001dB,5.17532443542066e+001°)
8.53159037603184e+001	(-8.16344761693494e+001dB,5.21670019375810e+001°)	(-5.83126638636893e+001dB,5.21670019375810e+001°)
8.73031664480331e+001	(-8.14903126576119e+001dB,5.25707303467745e+001°)	(-5.81685003519518e+001dB,5.25707303467745e+001°)
8.93367184301925e+001	(-8.13446854352591e+001dB,5.29642125782038e+001°)	(-5.80228731295990e+001dB,5.29642125782038e+001°)
9.14176379229749e+001	(-8.11976456353685e+001dB,5.33472436403202e+001°)	(-5.78758333297085e+001dB,5.33472436403202e+001°)
9.35470282574395e+001	(-8.10492451634327e+001dB,5.37196305186678e+001°)	(-5.77274328577726e+001dB,5.37196305186678e+001°)
9.57260184645275e+001	(-8.08995366131453e+001dB,5.40811921078211e+001°)	(-5.75777243074853e+001dB,5.40811921078211e+001°)
9.79557638736891e+001	(-8.07485731863348e+001dB,5.44317591136004e+001°)	(-5.74267608806748e+001dB,5.44317591136004e+001°)
1.00237446725454e+002	(-8.05964086172897e+001dB,5.47711739290505e+001°)	(-5.72745963116296e+001dB,5.47711739290505e+001°)
1.02572276798273e+002	(-8.04430971016686e+001dB,5.50992904877081e+001°)	(-5.71212847960086e+001dB,5.50992904877081e+001°)
1.04961492049954e+002	(-8.02886932301300e+001dB,5.54159740976982e+001°)	(-5.69668809244699e+001dB,5.54159740976982e+001°)
1.07406359274050e+002	(-8.01332519267655e+001dB,5.57211012601701e+001°)	(-5.68114396211054e+001dB,5.57211012601701e+001°)
1.09908174771525e+002	(-7.99768283923709e+001dB,5.60145594755369e+001°)	(-5.66550160867108e+001dB,5.60145594755369e+001°)
1.12468265038070e+002	(-7.98194780525397e+001dB,5.62962470408952e+001°)	(-5.64976657468796e+001dB,5.62962470408952e+001°)
1.15087987467431e+002	(-7.96612565105215e+001dB,5.65660728419023e+001°)	(-5.63394442048614e+001dB,5.65660728419022e+001°)
1.17768731071118e+002	(-7.95022195047422e+001dB,5.68239561422597e+001°)	(-5.61804071990821e+001dB,5.68239561422597e+001°)
1.20511917214871e+002	(-7.93424228708486e+001dB,5.70698263738103e+001°)	(-5.60206105651885e+001dB,5.70698263738103e+001°)
1.23319000372296e+002	(-7.91819225080991e+001dB,5.73036229300965e+001°)	(-5.58601102024391e+001dB,5.73036229300965e+001°)
1.26191468896038e+002	(-7.90207743498946e+001dB,5.75252949660547e+001°)	(-5.56989620442345e+001dB,5.75252949660547e+001°)
1.29130845806931e+002	(-7.88590343382085e+001dB,5.77348012063419e+001°)	(-5.55372220325484e+001dB,5.77348012063419e+001°)
1.32138689601519e+002	(-7.86967584016554e+001dB,5.79321097645969e+001°)	(-5.53749460959954e+001dB,5.79321097645969e+001°)
1.35216595078396e+002	(-7.85340024369056e+001dB,5.81171979757431e+001°)	(-5.52121901312455e+001dB,5.81171979757431e+001°)
1.38366194183787e+002	(-7.83708222931389e+001dB,5.82900522432383e+001°)	(-5.50490099874788e+001dB,5.82900522432383e+001°)
1.41589156876827e+002	(-7.82072737592094e+001dB,5.84506679029698e+001°)	(-5.48854614535493e+001dB,5.84506679029698e+001°)
1.44887192014998e+002	(-7.80434125531771e+001dB,5.85990491052871e+001°)	(-5.47216002475171e+001dB,5.85990491052870e+001°)
1.48262048260183e+002	(-7.78792943138498e+001dB,5.87352087164518e+001°)	(-5.45574820081897e+001dB,5.87352087164518e+001°)
1.51715515005836e+002	(-7.77149745939659e+001dB,5.88591682405776e+001°)	(-5.43931622883058e+001dB,5.88591682405776e+001°)
1.55249423325738e+002	(-7.75505088546432e+001dB,5.89709577629158e+001°)	(-5.42286965489832e+001dB,5.89709577629158e+001°)
1.58865646944856e+002	(-7.73859524607056e+001dB,5.90706159151366e+001°)	(-5.40641401550455e+001dB,5.90706159151366e+001°)
1.62566103232819e+002	(-7.72213606765003e+001dB,5.91581898630380e+001°)	(-5.38995483708402e+001dB,5.91581898630380e+001°)
1.66352754220534e+002	(-7.70567886618123e+001dB,5.92337353169080e+001°)	(-5.37349763561523e+001dB,5.92337353169080e+001°)
1.70227607640475e+002	(-7.68922914674807e+001dB,5.92973165645478e+001°)	(-5.35704791618206e+001dB,5.92973165645478e+001°)
1.74192717991216e+002	(-7.67279240303220e+001dB,5.93490065267568e+001°)	(-5.34061117246619e+001dB,5.93490065267568e+001°)
1.78250187626749e+002	(-7.65637411669711e+001dB,5.93888868348625e+001°)	(-5.32419288613110e+001dB,5.93888868348625e+001°)
1.82402167871181e+002	(-7.63997975662481e+001dB,5.94170479296695e+001°)	(-5.30779852605880e+001dB,5.94170479296695e+001°)
1.86650860159398e+002	(-7.62361477796715e+001dB,5.94335891809864e+001°)	(-5.29143354740114e+001dB,5.94335891809864e+001°)
1.90998517204287e+002	(-7.60728462097420e+001dB,5.94386190266761e+001°)	(-5.27510339040819e+001dB,5.94386190266761e+001°)
1.95447444191162e+002	(-7.59099470956333e+001dB,5.94322551299638e+001°)	(-5.25881347899732e+001dB,5.94322551299638e+001°)
1.99999999999999e+002	(-7.57475044959371e+001dB,5.94146245535205e+001°)	(-5.24256921902770e+001dB,5.94146245535205e+001°)
2.04658598456150e+002	(-7.55855722681245e+001dB,5.93858639486321e+001°)	(-5.22637599624644e+001dB,5.93858639486322e+001°)
2.09425709610179e+002	(-7.54242040444038e+001dB,5.93461197575513e+001°)	(-5.21023917387437e+001dB,5.93461197575513e+001°)
2.14303861047521e+002	(-7.52634532036727e+001dB,5.92955484269227e+001°)	(-5.19416408980126e+001dB,5.92955484269227e+001°)
2.19295639228636e+002	(-7.51033728392864e+001dB,5.92343166299703e+001°)	(-5.17815605336263e+001dB,5.92343166299703e+001°)
2.24403690860392e+002	(-7.49440157223868e+001dB,5.91626014949340e+001°)	(-5.16222034167268e+001dB,5.91626014949340e+001°)
2.29630724299376e+002	(-7.47854342605692e+001dB,5.90805908370571e+001°)	(-5.14636219549092e+001dB,5.90805908370571e+001°)
2.34979510987905e+002	(-7.46276804516894e+001dB,5.89884833912384e+001°)	(-5.13058681460294e+001dB,5.89884833912384e+001°)
2.40452886923482e+002	(-7.44708058326531e+001dB,5.88864890422975e+001°)	(-5.11489935269930e+001dB,5.88864890422975e+001°)
2.46053754162476e+002	(-7.43148614230638e+001dB,5.87748290496419e+001°)	(-5.09930491174037e+001dB,5.87748290496419e+001°)
2.51785082358833e+002	(-7.41598976636480e+001dB,5.86537362629846e+001°)	(-5.08380853579879e+001dB,5.86537362629846e+001°)
2.57649910338626e+002	(-7.40059643494182e+001dB,5.85234553256417e+001°)	(-5.06841520437581e+001dB,5.85234553256417e+001°)
2.63651347711281e+002	(-7.38531105575836e+001dB,5.83842428618363e+001°)	(-5.05312982519236e+001dB,5.83842428618363e+001°)
2.69792576518330e+002	(-7.37013845702651e+001dB,5.82363676443662e+001°)	(-5.03795722646050e+001dB,5.82363676443662e+001°)
2.76076852920576e+002	(-7.35508337921241e+001dB,5.80801107389426e+001°)	(-5.02290214864640e+001dB,5.80801107389426e+001°)
2.82507508924550e+002	(-7.34015046630707e+001dB,5.79157656214955e+001°)	(-5.00796923574106e+001dB,5.79157656214955e+001°)
2.89087954149185e+002	(-7.32534425662679e+001dB,5.77436382647592e+001°)	(-4.99316302606078e+001dB,5.77436382647592e+001°)
2.95821677633641e+002	(-7.31066917317110e+001dB,5.75640471905100e+001°)	(-4.97848794260510e+001dB,5.75640471905100e+001°)
3.02712249687241e+002	(-7.29612951357146e+001dB,5.73773234839192e+001°)	(-4.96394828300545e+001dB,5.73773234839192e+001°)
3.09763323782495e+002	(-7.28172943966997e+001dB,5.71838107666259e+001°)	(-4.94954820910396e+001dB,5.71838107666259e+001°)
3.16978638492222e+002	(-7.26747296677298e+001dB,5.69838651253097e+001°)	(-4.93529173620697e+001dB,5.69838651253097e+001°)
3.24362019471785e+002	(-7.25336395263003e+001dB,5.67778549927662e+001°)	(-4.92118272206402e+001dB,5.67778549927662e+001°)
3.31917381487511e+002	(-7.23940608619382e+001dB,5.65661609787542e+001°)	(-4.90722485562781e+001dB,5.65661609787542e+001°)
3.39648730492348e+002	(-7.22560287622205e+001dB,5.63491756481923e+001°)	(-4.89342164565604e+001dB,5.63491756481923e+001°)
3.47560165749874e+002	(-7.21195763978639e+001dB,5.61273032446335e+001°)	(-4.87977640922038e+001dB,5.61273032446335e+001°)
3.55655882007783e+002	(-7.19847349075815e+001dB,5.59009593573347e+001°)	(-4.86629226019214e+001dB,5.59009593573347e+001°)
3.63940171721995e+002	(-7.18515332834347e+001dB,5.56705705306673e+001°)	(-4.85297209777746e+001dB,5.56705705306673e+001°)
3.72417427332572e+002	(-7.17199982574412e+001dB,5.54365738150710e+001°)	(-4.83981859517812e+001dB,5.54365738150710e+001°)
3.81092143592648e+002	(-7.15901541902164e+001dB,5.51994162592429e+001°)	(-4.82683418845563e+001dB,5.51994162592429e+001°)
3.89968919951608e+002	(-7.14620229624432e+001dB,5.49595543437598e+001°)	(-4.81402106567831e+001dB,5.49595543437598e+001°)
3.99052462993775e+002	(-7.13356238699675e+001dB,5.47174533568583e+001°)	(-4.80138115643074e+001dB,5.47174533568583e+001°)
4.08347588933904e+002	(-7.12109735233128e+001dB,5.44735867136289e+001°)	(-4.78891612176528e+001dB,5.44735867136289e+001°)
4.17859226170806e+002	(-7.10880857523942e+001dB,5.42284352204154e+001°)	(-4.77662734467341e+001dB,5.42284352204154e+001°)
4.27592417900445e+002	(-7.09669715171883e+001dB,5.39824862867375e+001°)	(-4.76451592115282e+001dB,5.39824862867375e+001°)
4.37552324789909e+002	(-7.08476388250843e+001dB,5.37362330875659e+001°)	(-4.75258265194243e+001dB,5.37362330875659e+001°)
4.47744227713666e+002	(-7.07300926555996e+001dB,5.34901736792698e+001°)	(-4.74082803499395e+001dB,5.34901736792698e+001°)
4.58173530553553e+002	(-7.06143348930912e+001dB,5.32448100730094e+001°)	(-4.72925225874311e+001dB,5.32448100730094e+001°)
4.68845763063983e+002	(-7.05003642680403e+001dB,5.30006472697697e+001°)	(-4.71785519623802e+001dB,5.30006472697697e+001°)
4.79766583803896e+002	(-7.03881763074175e+001dB,5.27581922615986e+001°)	(-4.70663640017574e+001dB,5.27581922615986e+001°)
4.90941783137004e+002	(-7.02777632945663e+001dB,5.25179530039325e+001°)	(-4.69559509889063e+001dB,5.25179530039325e+001°)
5.02377286301914e+002	(-7.01691142389666e+001dB,5.22804373641555e+001°)	(-4.68473019333065e+001dB,5.22804373641555e+001°)
5.14079156553771e+002	(-7.00622148561549e+001dB,5.20461520517332e+001°)	(-4.67404025504948e+001dB,5.20461520517332e+001°)
5.26053598379074e+002	(-6.99570475580001e+001dB,5.18156015353958e+001°)	(-4.66352352523400e+001dB,5.18156015353958e+001°)
5.38306960785381e+002	(-6.98535914534416e+001dB,5.15892869529133e+001°)	(-4.65317791477815e+001dB,5.15892869529133e+001°)
5.50845740667631e+002	(-6.97518223597180e+001dB,5.13677050189964e+001°)	(-4.64300100540580e+001dB,5.13677050189964e+001°)
5.63676586252888e+002	(-6.96517128240260e+001dB,5.11513469367945e+001°)	(-4.63299005183660e+001dB,5.11513469367945e+001°)
5.76806300625319e+002	(-6.95532321554714e+001dB,5.09406973183212e+001°)	(-4.62314198498114e+001dB,5.09406973183212e+001°)
5.90241845333275e+002	(-6.94563464670962e+001dB,5.07362331189469e+001°)	(-4.61345341614361e+001dB,5.07362331189469e+001°)
6.03990344080401e+002	(-6.93610187276945e+001dB,5.05384225908434e+001°)	(-4.60392064220345e+001dB,5.05384225908434e+001°)
6.18059086502716e+002	(-6.92672088230664e+001dB,5.03477242599665e+001°)	(-4.59453965174063e+001dB,5.03477242599665e+001°)
6.32455532033673e+002	(-6.91748736262980e+001dB,5.01645859308145e+001°)	(-4.58530613206380e+001dB,5.01645859308145e+001°)
6.47187313859254e+002	(-6.90839670766116e+001dB,4.99894437228226e+001°)	(-4.57621547709515e+001dB,4.99894437228226e+001°)
6.62262242965179e+002	(-6.89944402662829e+001dB,4.98227211418428e+001°)	(-4.56726279606228e+001dB,4.98227211418428e+001°)
6.77688312278402e+002	(-6.89062415350954e+001dB,4.96648281897342e+001°)	(-4.55844292294353e+001dB,4.96648281897342e+001°)
6.93473700905060e+002	(-6.88193165717755e+001dB,4.95161605146504e+001°)	(-4.54975042661154e+001dB,4.95161605146504e+001°)
7.09626778467148e+002	(-6.87336085218400e+001dB,4.93770986041726e+001°)	(-4.54117962161799e+001dB,4.93770986041726e+001°)
7.26156109540200e+002	(-6.86490581012814e+001dB,4.92480070230053e+001°)	(-4.53272457956213e+001dB,4.92480070230053e+001°)
7.43070458194342e+002	(-6.85656037155202e+001dB,4.91292336965369e+001°)	(-4.52437914098601e+001dB,4.91292336965369e+001°)
7.60378792641119e+002	(-6.84831815830640e+001dB,4.90211092411707e+001°)	(-4.51613692774039e+001dB,4.90211092411707e+001°)
7.78090289988558e+002	(-6.84017258633320e+001dB,4.89239463419684e+001°)	(-4.50799135576719e+001dB,4.89239463419684e+001°)
7.96214341106991e+002	(-6.83211687881255e+001dB,4.88380391778175e+001°)	(-4.49993564824655e+001dB,4.88380391778175e+001°)
8.14760555608222e+002	(-6.82414407962583e+001dB,4.87636628940392e+001°)	(-4.49196284905982e+001dB,4.87636628940392e+001°)
8.33738766940667e+002	(-6.81624706708890e+001dB,4.87010731221084e+001°)	(-4.48406583652289e+001dB,4.87010731221084e+001°)
